LTspice 24.0.12 for Windows
Circuit: * C:\Users\gn244\Desktop\LDO Research Work\Error Amplifier\Symbol Amp\ldo_24mA.asc
Start Time: Sun Mar 16 03:27:13 2025
solver = Normal
Maximum thread count: 12
tnom = 27
temp = 27
method = modified trap
Warning: Pd = 0 is less than W.
Warning: Ps = 0 is less than W.
Warning: Pd = 0 is less than W.
Warning: Ps = 0 is less than W.
Warning: Pd = 0 is less than W.
Warning: Ps = 0 is less than W.
Warning: Pd = 0 is less than W.
Warning: Ps = 0 is less than W.
Warning: Pd = 0 is less than W.
Warning: Ps = 0 is less than W.
Warning: Pd = 0 is less than W.
Warning: Ps = 0 is less than W.
Direct Newton iteration failed to find .op point.  (Use ".option noopiter" to skip.)
Starting Gmin stepping
Gmin = 10
Gmin = 1.07374
Gmin = 0.115292
Gmin = 0.0123794
Gmin = 0.00132923
Gmin = 0.000142725
Gmin = 1.5325e-05
vernier = 0.5
vernier = 0.25
Gmin = 5.23326e-06
vernier = 0.333333
vernier = 0.444444
vernier = 0.222222
Gmin = 2.86775e-06
vernier = 0.111111
vernier = 0.0555555
vernier = 0.0277778
vernier = 0.0138889
vernier = 0.00694444
vernier = 0.00347222
vernier = 0.00173611
vernier = 0.000868055
vernier = 0.000434028
Gmin = 2.86775e-06
Gmin = 0
Gmin stepping failed

Starting source stepping with srcstepmethod=0
Source Step = 3.0303%
Source Step = 33.3333%
Source Step = 63.6364%
Source Step = 93.9394%
Source stepping succeeded in finding the operating point.

Semiconductor Device Operating Points:
                        --- BSIM3 MOSFETS ---
Name:      m:x1:1      m:x1:5      m:x1:3b     m:x1:6      m:x1:4b
Model:      nmos        nmos        nmos        nmos        nmos
Id:        5.00e-07    2.90e-05    1.59e-05    2.84e-05    1.57e-05
Vgs:       6.84e-01    6.07e-01    5.74e-01    6.03e-01    5.74e-01
Vds:       6.84e-01    9.02e-01    5.74e-01    1.27e+00    5.74e-01
Vbs:       0.00e+00    0.00e+00    0.00e+00    0.00e+00    0.00e+00
Vth:       5.41e-01    4.67e-01    4.67e-01    4.67e-01    4.67e-01
Vdsat:     1.08e-01    1.10e-01    8.85e-02    1.07e-01    8.82e-02
Gm:        7.66e-06    4.47e-04    2.88e-04    4.41e-04    2.86e-04
Gds:       5.70e-08    3.79e-06    2.64e-06    3.52e-06    2.62e-06
Gmb        1.65e-06    1.18e-04    7.67e-05    1.16e-04    7.60e-05
Cbd:       0.00e+00    0.00e+00    0.00e+00    0.00e+00    0.00e+00
Cbs:       0.00e+00    0.00e+00    0.00e+00    0.00e+00    0.00e+00
Cgsov:     4.08e-17    4.08e-15    4.08e-15    4.08e-15    4.08e-15
Cgdov:     4.08e-17    4.08e-15    4.08e-15    4.08e-15    4.08e-15
Cgbov:     3.33e-19    3.33e-19    3.33e-19    3.33e-19    3.33e-19
dQgdVgb:   2.06e-16    2.04e-14    2.02e-14    2.04e-14    2.02e-14
dQgdVdb:  -4.08e-17   -4.08e-15   -4.08e-15   -4.08e-15   -4.08e-15
dQgdVsb:  -1.50e-16   -1.54e-14   -1.50e-14   -1.54e-14   -1.50e-14
dQddVgb:  -8.93e-17   -8.92e-15   -8.77e-15   -8.91e-15   -8.77e-15
dQddVdb:   4.08e-17    4.08e-15    4.08e-15    4.08e-15    4.08e-15
dQddVsb:   6.00e-17    6.27e-15    6.08e-15    6.25e-15    6.07e-15
dQbdVgb:  -2.70e-17   -2.59e-15   -2.62e-15   -2.59e-15   -2.62e-15
dQbdVdb:  -2.06e-20   -7.68e-19   -2.47e-18   -1.86e-19   -2.47e-18
dQbdVsb:  -1.10e-17   -1.23e-15   -1.20e-15   -1.22e-15   -1.20e-15

Name:      m:x1:3a     m:x1:4a     m:x1:2      m:x1:9      m:x1:7
Model:      nmos        nmos        pmos        pmos        pmos
Id:        4.51e-05    4.47e-05    5.00e-07   -2.90e-05   -2.90e-05
Vgs:       5.74e-01    5.74e-01    0.00e+00   -6.06e-01   -6.06e-01
Vds:       2.93e-01    2.97e-01    6.13e-01   -2.94e-01   -3.11e-01
Vbs:       0.00e+00    0.00e+00    6.13e-01    0.00e+00    0.00e+00
Vth:       4.67e-01    4.67e-01   -4.25e-01   -4.73e-01   -4.73e-01
Vdsat:     8.85e-02    8.82e-02   -1.61e-01   -1.29e-01   -1.29e-01
Gm:        8.27e-04    8.21e-04    5.17e-06    3.73e-04    3.74e-04
Gds:       1.03e-05    1.01e-05    5.08e-08    3.75e-06    3.54e-06
Gmb        2.20e-04    2.19e-04    1.77e-06    1.17e-04    1.17e-04
Cbd:       0.00e+00    0.00e+00    0.00e+00    0.00e+00    0.00e+00
Cbs:       0.00e+00    0.00e+00    0.00e+00    0.00e+00    0.00e+00
Cgsov:     1.22e-14    1.22e-14    1.09e-16    1.09e-14    1.09e-14
Cgdov:     1.22e-14    1.22e-14    1.09e-16    1.09e-14    1.09e-14
Cgbov:     9.99e-19    9.99e-19    3.11e-19    3.11e-19    3.11e-19
dQgdVgb:   6.06e-14    6.06e-14    5.56e-16    5.52e-14    5.52e-14
dQgdVdb:  -1.23e-14   -1.23e-14   -1.09e-16   -1.10e-14   -1.10e-14
dQgdVsb:  -4.51e-14   -4.51e-14   -4.44e-16   -4.26e-14   -4.26e-14
dQddVgb:  -2.64e-14   -2.64e-14   -2.41e-16   -2.41e-14   -2.41e-14
dQddVdb:   1.23e-14    1.23e-14    1.09e-16    1.10e-14    1.10e-14
dQddVsb:   1.83e-14    1.83e-14    1.80e-16    1.73e-14    1.73e-14
dQbdVgb:  -7.77e-15   -7.78e-15   -7.37e-17   -7.02e-15   -7.03e-15
dQbdVdb:  -6.34e-17   -5.99e-17   -1.22e-19   -7.82e-17   -6.52e-17
dQbdVsb:  -3.67e-15   -3.66e-15   -2.49e-17   -2.93e-15   -2.93e-15

Name:      m:x1:1a     m:x1:10     m:x1:8      m:x1:2a     m:x1:0
Model:      pmos        pmos        pmos        pmos        pmos
Id:       -1.61e-05   -2.84e-05   -2.84e-05   -1.63e-05   -6.39e-05
Vgs:      -5.64e-01   -6.06e-01   -7.11e-01   -5.64e-01   -6.13e-01
Vds:      -1.22e+00   -1.89e-01   -4.16e-02   -1.22e+00   -2.86e-01
Vbs:       0.00e+00    0.00e+00    0.00e+00    0.00e+00    0.00e+00
Vth:      -4.73e-01   -4.73e-01   -4.73e-01   -4.73e-01   -4.73e-01
Vdsat:    -1.01e-01   -1.29e-01   -2.09e-01   -1.02e-01   -1.35e-01
Gm:        2.53e-04    3.61e-04    1.35e-04    2.54e-04    7.91e-04
Gds:       1.44e-06    1.08e-05    6.04e-04    1.46e-06    8.75e-06
Gmb        7.94e-05    1.13e-04    4.76e-05    8.00e-05    2.48e-04
Cbd:       0.00e+00    0.00e+00    0.00e+00    0.00e+00    0.00e+00
Cbs:       0.00e+00    0.00e+00    0.00e+00    0.00e+00    0.00e+00
Cgsov:     1.01e-14    1.09e-14    1.09e-14    1.01e-14    2.19e-14
Cgdov:     1.01e-14    1.09e-14    1.09e-14    1.01e-14    2.19e-14
Cgbov:     3.11e-19    3.11e-19    3.11e-19    3.11e-19    6.21e-19
dQgdVgb:   4.96e-14    5.54e-14    6.15e-14    4.96e-14    1.11e-13
dQgdVdb:  -1.01e-14   -1.13e-14   -2.42e-14   -1.01e-14   -2.21e-14
dQgdVsb:  -3.76e-14   -4.27e-14   -3.77e-14   -3.77e-14   -8.56e-14
dQddVgb:  -2.14e-14   -2.43e-14   -3.02e-14   -2.15e-14   -4.83e-14
dQddVdb:   1.01e-14    1.13e-14    2.44e-14    1.01e-14    2.21e-14
dQddVsb:   1.50e-14    1.74e-14    1.19e-14    1.50e-14    3.48e-14
dQbdVgb:  -6.71e-15   -6.79e-15   -1.06e-15   -6.70e-15   -1.40e-14
dQbdVdb:  -5.02e-19   -3.31e-16   -1.37e-14   -5.12e-19   -1.89e-16
dQbdVsb:  -2.53e-15   -2.98e-15    2.90e-15   -2.53e-15   -5.88e-15

Name:      m:x1:1b     m:x1:2b       m1
Model:      pmos        pmos        pmos
Id:       -1.57e-05   -1.59e-05   -5.00e-06
Vgs:      -5.64e-01   -5.64e-01   -2.30e-01
Vds:      -9.41e-01   -9.40e-01   -2.99e-01
Vbs:       0.00e+00    0.00e+00    0.00e+00
Vth:      -4.73e-01   -4.73e-01   -5.23e-01
Vdsat:    -1.01e-01   -1.02e-01   -4.08e-02
Gm:        2.46e-04    2.48e-04    1.27e-04
Gds:       1.45e-06    1.46e-06    1.69e-06
Gmb        7.74e-05    7.80e-05    4.48e-05
Cbd:       0.00e+00    0.00e+00    0.00e+00
Cbs:       0.00e+00    0.00e+00    0.00e+00
Cgsov:     1.01e-14    1.01e-14    7.77e-12
Cgdov:     1.01e-14    1.01e-14    7.77e-12
Cgbov:     3.11e-19    3.11e-19    1.31e-16
dQgdVgb:   4.96e-14    4.96e-14    1.87e-11
dQgdVdb:  -1.01e-14   -1.01e-14   -7.77e-12
dQgdVsb:  -3.76e-14   -3.77e-14   -7.78e-12
dQddVgb:  -2.14e-14   -2.15e-14   -7.77e-12
dQddVdb:   1.01e-14    1.01e-14    7.77e-12
dQddVsb:   1.50e-14    1.50e-14    2.91e-15
dQbdVgb:  -6.71e-15   -6.70e-15   -3.17e-12
dQbdVdb:  -1.16e-18   -1.17e-18   -4.25e-19
dQbdVsb:  -2.53e-15   -2.54e-15   -4.48e-16


Total elapsed time: 0.302 seconds.

